
T4298 000:008 SEGGER J-Link V6.20g Log File (0001ms, 0009ms total)
T4298 000:008 DLL Compiled: Oct 20 2017 17:09:27 (0001ms, 0009ms total)
T4298 000:008 Logging started @ 2017-10-30 10:02 (0001ms, 0009ms total)
T4298 000:009 JLINK_SetWarnOutHandler(...) (0000ms, 0009ms total)
T4298 000:009 JLINK_OpenEx(...)
Firmware: J-Link OpenSDA 2 compiled May  6 2016 11:04:17
Hardware: V1.00
S/N: 621000000
TELNET listener socket opened on port 19021WEBSRV 
Starting webserver (0025ms, 0034ms total)
T4298 000:009 WEBSRV Webserver running on local port 19080 (0026ms, 0035ms total)
T4298 000:009   returns O.K. (0026ms, 0035ms total)
T4298 000:035 JLINK_GetEmuCaps()  returns 0xB86A5A33 (0000ms, 0035ms total)
T4298 000:035 JLINK_TIF_GetAvailable(...) (0000ms, 0035ms total)
T4298 000:035 JLINK_SetErrorOutHandler(...) (0000ms, 0035ms total)
T4298 000:035 JLINK_ExecCommand("ProjectFile = "C:\Users\Joel\Documents\RT_lab1\Realtime_lab1\freertos\JLinkSettings.ini"", ...). C:\Program Files (x86)\SEGGER\JLink_V620g\JLinkDevices.xml evaluated successfully.  returns 0x00 (0675ms, 0710ms total)
T4298 000:713 JLINK_ExecCommand("Device = MKW41Z512xxx4", ...). Device "MKW41Z512XXX4" selected.  returns 0x00 (0009ms, 0719ms total)
T4298 000:722 JLINK_ExecCommand("DisableConnectionTimeout", ...).   returns 0x01 (0000ms, 0719ms total)
T4298 000:722 JLINK_GetHardwareVersion()  returns 0x2710 (0000ms, 0719ms total)
T4298 000:722 JLINK_GetDLLVersion()  returns 62007 (0000ms, 0719ms total)
T4298 000:722 JLINK_GetFirmwareString(...) (0000ms, 0719ms total)
T4298 000:733 JLINK_GetDLLVersion()  returns 62007 (0000ms, 0719ms total)
T4298 000:733 JLINK_GetCompileDateTime() (0000ms, 0719ms total)
T4298 000:736 JLINK_GetFirmwareString(...) (0000ms, 0719ms total)
T4298 000:739 JLINK_GetHardwareVersion()  returns 0x2710 (0000ms, 0719ms total)
T4298 000:759 JLINK_TIF_Select(JLINKARM_TIF_SWD)  returns 0x00 (0001ms, 0720ms total)
T4298 000:760 JLINK_SetSpeed(5000) (0000ms, 0720ms total)
T4298 000:760 JLINK_GetId()InitTarget() >0x10B TIF> >0x0D TIF> >0x28 TIF> >0x0D TIF> >0x28 TIF> >0x0D TIF> >0x28 TIF> >0x0D TIF> >0x28 TIF> >0x0D TIF> >0x21 TIF> >0x0D TIF> >0x28 TIF> >0x0D TIF> >0x21 TIF> >0x0D TIF> >0x21 TIF> >0x0D TIF> >0x21 TIF> >0x0D TIF> >0x21 TIF> >0x0D TIF> >0x21 TIF> >0x0D TIF> >0x21 TIF> >0x0D TIF> >0x21 TIF> >0x0D TIF> >0x21 TIF> >0x0D TIF> >0x21 TIF> >0x0D TIF> >0x21 TIF> >0x0D TIF> >0x21 TIF> >0x0D TIF> >0x21 TIF> >0x0D TIF> >0x21 TIF> >0x0D TIF> >0x21 TIF> >0x0D TIF>
 >0x21 TIF> >0x0D TIF> >0x21 TIF> >0x0D TIF> >0x21 TIF> >0x0D TIF> >0x21 TIF> >0x0D TIF> >0x21 TIF> >0x0D TIF> >0x21 TIF> >0x0D TIF> >0x21 TIF> >0x0D TIF> >0x21 TIF> >0x0D TIF> >0x21 TIF> >0x0D TIF> >0x21 TIF> >0x0D TIF> >0x21 TIF> >0x0D TIF> >0x21 TIF> >0x0D TIF> >0x21 TIF> >0x0D TIF> >0x21 TIF> >0x0D TIF> >0x21 TIF> >0x0D TIF> >0x21 TIF> >0x0D TIF> >0x21 TIF> >0x0D TIF> >0x21 TIF> >0x0D TIF> >0x21 TIF> >0x0D TIF> >0x21 TIF> >0x0D TIF> >0x21 TIF> >0x0D TIF> >0x21 TIF> >0x0D TIF> >0x21 TIF> >0x0D TIF>
 >0x21 TIF> >0x0D TIF> >0x21 TIF> >0x0D TIF> >0x21 TIF> >0x0D TIF> >0x21 TIF> >0x0D TIF> >0x21 TIF> >0x0D TIF> >0x21 TIF> >0x0D TIF> >0x21 TIF> >0x0D TIF> >0x21 TIF> >0x0D TIF> >0x21 TIF> >0x0D TIF> >0x21 TIF> >0x0D TIF> >0x21 TIF> >0x0D TIF> >0x21 TIF> >0x0D TIF> >0x21 TIF> >0x0D TIF> >0x21 TIF> >0x0D TIF> >0x21 TIF> >0x0D TIF> >0x21 TIF> >0x0D TIF> >0x21 TIF> >0x0D TIF> >0x21 TIF> >0x0D TIF> >0x21 TIF> >0x0D TIF> >0x21 TIF> >0x0D TIF> >0x21 TIF> >0x0D TIF> >0x21 TIF> >0x0D TIF> >0x21 TIF> >0x0D TIF>
 >0x21 TIF> >0x0D TIF> >0x21 TIF> >0x0D TIF> >0x21 TIF> >0x0D TIF> >0x21 TIF> >0x0D TIF> >0x21 TIF> >0x0D TIF> >0x21 TIF> >0x0D TIF> >0x21 TIF> >0x0D TIF> >0x21 TIF> >0x0D TIF> >0x21 TIF> >0x0D TIF> >0x21 TIF> >0x0D TIF> >0x21 TIF> >0x0D TIF> >0x21 TIF> >0x0D TIF> >0x21 TIF> >0x0D TIF> >0x21 TIF> >0x0D TIF> >0x21 TIF> >0x0D TIF> >0x21 TIF> >0x0D TIF> >0x21 TIF> >0x0D TIF> >0x21 TIF> >0x0D TIF> >0x21 TIF> >0x0D TIF> >0x21 TIF> >0x0D TIF> >0x21 TIF> >0x0D TIF> >0x21 TIF> >0x0D TIF> >0x21 TIF> >0x0D TIF>
 >0x21 TIF> >0x0D TIF> >0x21 TIF> >0x0D TIF> >0x21 TIF> >0x0D TIF> >0x21 TIF> >0x0D TIF> >0x21 TIF> >0x0D TIF> >0x21 TIF> >0x0D TIF> >0x21 TIF> >0x0D TIF> >0x28 TIF> >0x0D TIF> >0x28 TIF> >0x0D TIF> >0x28 TIF> >0x0D TIF> >0x21 TIF> >0x0D TIF> >0x21 TIF> >0x10B TIF>Found SW-DP with ID 0x0BC11477 >0x0D TIF> >0x28 TIF> >0x0D TIF> >0x28 TIF> >0x0D TIF> >0x28 TIF> >0x0D TIF> >0x28 TIF> >0x0D TIF> >0x21 TIF> >0x0D TIF> >0x28 TIF>Scanning AP map to find all available APs >0x0D TIF> >0x28 TIF> >0x0D TIF>
 >0x21 TIF> >0x0D TIF> >0x21 TIF> >0x0D TIF> >0x28 TIF> >0x0D TIF> >0x21 TIF> >0x0D TIF> >0x21 TIF> >0x0D TIF> >0x28 TIF> >0x0D TIF> >0x21 TIF> >0x0D TIF> >0x21 TIF>AP[2]: Stopped AP scan as end of AP map has been reachedAP[0]: AHB-AP (IDR: 0x04770031)AP[1]: JTAG-AP (IDR: 0x001C0020)Iterating through AP map to find AHB-AP to use >0x42 TIF> >0x28 TIF> >0x0D TIF> >0x21 TIF> >0x0D TIF> >0x21 TIF> >0x42 TIF> >0x28 TIF> >0x0D TIF> >0x28 TIF> >0x0D TIF> >0x28 TIF> >0x0D TIF> >0x21 TIF> >0x0D TIF> >0x21 TIF>
AP[0]: Core foundAP[0]: AHB-AP ROM base: 0xF0002000 >0x0D TIF> >0x28 TIF> >0x0D TIF> >0x28 TIF> >0x0D TIF> >0x28 TIF> >0x0D TIF> >0x21 TIF> >0x0D TIF> >0x21 TIF>CPUID register: 0x410CC601. Implementer code: 0x41 (ARM)Found Cortex-M0 r0p1, Little endian. -- CPU_ReadMem(4 bytes @ 0xE000EDF0) -- CPU_WriteMem(4 bytes @ 0xE000EDF0) -- CPU_ReadMem(4 bytes @ 0xE0002000)FPUnit: 2 code (BP) slots and 0 literal slots -- CPU_ReadMem(4 bytes @ 0xE000EDFC) -- CPU_WriteMem(4 bytes @ 0xE000EDFC)
 -- CPU_ReadMem(4 bytes @ 0xE0001000) -- CPU_WriteMem(4 bytes @ 0xE0001000)CoreSight components:ROMTbl[0] @ F0002000 -- CPU_ReadMem(16 bytes @ 0xF0002000) -- CPU_ReadMem(16 bytes @ 0xF0000FF0) -- CPU_ReadMem(16 bytes @ 0xF0000FE0)ROMTbl[0][0]: F0000000, CID: B105900D, PID: 001BB932 MTB-M0+ -- CPU_ReadMem(16 bytes @ 0xF0001FF0) -- CPU_ReadMem(16 bytes @ 0xF0001FE0)ROMTbl[0][1]: F0001000, CID: B105900D, PID: 0008E000 MTBDWT -- CPU_ReadMem(16 bytes @ 0xE00FFFF0) -- CPU_ReadMem(16 bytes @ 0xE00FFFE0)
ROMTbl[0][2]: E00FF000, CID: B105100D, PID: 000BB4C0 ROM TableROMTbl[1] @ E00FF000 -- CPU_ReadMem(16 bytes @ 0xE00FF000) -- CPU_ReadMem(16 bytes @ 0xE000EFF0) -- CPU_ReadMem(16 bytes @ 0xE000EFE0)ROMTbl[1][0]: E000E000, CID: B105E00D, PID: 000BB008 SCS -- CPU_ReadMem(16 bytes @ 0xE0001FF0) -- CPU_ReadMem(16 bytes @ 0xE0001FE0)ROMTbl[1][1]: E0001000, CID: B105E00D, PID: 000BB00A DWT -- CPU_ReadMem(16 bytes @ 0xE0002FF0) -- CPU_ReadMem(16 bytes @ 0xE0002FE0)
ROMTbl[1][2]: E0002000, CID: B105E00D, PID: 000BB00B FPB >0x0D TIF> >0x21 TIF>  returns 0x0BC11477 (0273ms, 0993ms total)
T4298 001:033 JLINK_GetDLLVersion()  returns 62007 (0000ms, 0993ms total)
T4298 001:033 JLINK_CORE_GetFound()  returns 0x60000FF (0000ms, 0993ms total)
T4298 001:033 JLINK_GetDebugInfo(0x100 = JLINKARM_ROM_TABLE_ADDR_INDEX) -- Value=0xF0002000  returns 0x00 (0000ms, 0993ms total)
T4298 001:037 JLINK_GetDebugInfo(0x100 = JLINKARM_ROM_TABLE_ADDR_INDEX) -- Value=0xF0002000  returns 0x00 (0000ms, 0993ms total)
T4298 001:037 JLINK_GetDebugInfo(0x101 = JLINKARM_DEBUG_INFO_ETM_ADDR_INDEX) -- Value=0x00000000  returns 0x00 (0000ms, 0993ms total)
T4298 001:037 JLINK_ReadMemEx(0xE0041FF0, 0x0010 Bytes, ..., Flags = 0x02000004) -- CPU_ReadMem(16 bytes @ 0xE0041FF0) - Data: 00 00 00 00 00 00 00 00 00 00 00 00 00 00 00 00  returns 0x10 (0001ms, 0994ms total)
T4298 001:038 JLINK_GetDebugInfo(0x102 = JLINKARM_DEBUG_INFO_MTB_ADDR_INDEX) -- Value=0xF0000000  returns 0x00 (0000ms, 0994ms total)
T4298 001:038 JLINK_CORE_GetFound()  returns 0x60000FF (0000ms, 0994ms total)
T4298 001:038 JLINK_GetDebugInfo(0x103 = JLINKARM_DEBUG_INFO_TPIU_ADDR_INDEX) -- Value=0x00000000  returns 0x00 (0000ms, 0994ms total)
T4298 001:038 JLINK_ReadMemEx(0xE0040FF0, 0x0010 Bytes, ..., Flags = 0x02000004) -- CPU_ReadMem(16 bytes @ 0xE0040FF0) - Data: 00 00 00 00 00 00 00 00 00 00 00 00 00 00 00 00  returns 0x10 (0001ms, 0995ms total)
T4298 001:039 JLINK_GetDebugInfo(0x104 = JLINKARM_DEBUG_INFO_ITM_ADDR_INDEX) -- Value=0xE0000000  returns 0x00 (0000ms, 0995ms total)
T4298 001:039 JLINK_GetDebugInfo(0x105 = JLINKARM_DEBUG_INFO_DWT_ADDR_INDEX) -- Value=0xE0001000  returns 0x00 (0000ms, 0995ms total)
T4298 001:039 JLINK_GetDebugInfo(0x106 = JLINKARM_DEBUG_INFO_FPB_ADDR_INDEX) -- Value=0xE0002000  returns 0x00 (0000ms, 0995ms total)
T4298 001:039 JLINK_GetDebugInfo(0x107 = JLINKARM_DEBUG_INFO_NVIC_ADDR_INDEX) -- Value=0xE000E000  returns 0x00 (0000ms, 0995ms total)
T4298 001:039 JLINK_GetDebugInfo(0x10C = JLINKARM_DEBUG_INFO_DBG_ADDR_INDEX) -- Value=0xE000EDF0  returns 0x00 (0000ms, 0995ms total)
T4298 001:039 JLINK_ReadMemU32(0xE000ED00, 0x0001 Items, ...) -- CPU_ReadMem(4 bytes @ 0xE000ED00) - Data: 01 C6 0C 41  returns 0x01 (0001ms, 0996ms total)
T4298 001:040 JLINK_GetDebugInfo(0x10F = JLINKARM_DEBUG_INFO_HAS_CORTEX_M_SECURITY_EXT_INDEX) -- Value=0x00000000  returns 0x00 (0000ms, 0996ms total)
T4298 001:040 JLINK_SetResetType(JLINKARM_CM3_RESET_TYPE_NORMAL)  returns JLINKARM_CM3_RESET_TYPE_NORMAL (0000ms, 0996ms total)
T4298 001:040 JLINK_Reset() -- CPU is running -- CPU_WriteMem(4 bytes @ 0xE000EDF0) -- CPU is running -- CPU_WriteMem(4 bytes @ 0xE000EDFC)Reset: Halt core after reset via DEMCR.VC_CORERESET. >0x35 TIF>Reset: Reset device via AIRCR.SYSRESETREQ. -- CPU is running -- CPU_WriteMem(4 bytes @ 0xE000ED0C) >0x0D TIF> >0x28 TIF> -- CPU_ReadMem(4 bytes @ 0xE000EDF0) -- CPU_ReadMem(4 bytes @ 0xE000EDF0) -- CPU is running -- CPU_WriteMem(4 bytes @ 0xE000EDF0) -- CPU is running -- CPU_WriteMem(4 bytes @ 0xE000EDFC)
 -- CPU_ReadMem(4 bytes @ 0xE000EDF0) -- CPU_WriteMem(4 bytes @ 0xE0002000) -- CPU_ReadMem(4 bytes @ 0xE000EDFC) -- CPU_ReadMem(4 bytes @ 0xE0001000) -- CPU_WriteMem(4 bytes @ 0xE0001000) (0078ms, 1074ms total)
T4298 001:118 JLINK_Halt()  returns 0x00 (0000ms, 1074ms total)
T4298 001:119 JLINK_ReadMemU32(0xE000EDF0, 0x0001 Items, ...) -- CPU_ReadMem(4 bytes @ 0xE000EDF0) - Data: 03 00 03 00  returns 0x01 (0001ms, 1075ms total)
T4298 001:120 JLINK_WriteU32(0xE000EDF0, 0xA05F0003) -- CPU_WriteMem(4 bytes @ 0xE000EDF0)  returns 0x00 (0000ms, 1075ms total)
T4298 001:120 JLINK_WriteU32(0xE000EDFC, 0x01000000) -- CPU_WriteMem(4 bytes @ 0xE000EDFC)  returns 0x00 (0001ms, 1076ms total)
T4298 001:133 JLINK_GetHWStatus(...)  returns 0x00 (0001ms, 1077ms total)
T4298 001:144 JLINK_GetNumBPUnits(Type = 0xFFFFFF00)  returns 0x02 (0000ms, 1077ms total)
T4298 001:144 JLINK_GetNumBPUnits(Type = 0xF0)  returns 0x2000 (0000ms, 1077ms total)
T4298 001:144 JLINK_GetNumWPUnits()  returns 0x02 (0000ms, 1077ms total)
T4298 001:154 JLINK_GetSpeed()  returns 0x595 (0000ms, 1077ms total)
T4298 001:161 JLINK_ReadMemU32(0xE000E004, 0x0001 Items, ...) -- CPU_ReadMem(4 bytes @ 0xE000E004) - Data: 00 00 00 00  returns 0x01 (0000ms, 1077ms total)
T4298 001:161 JLINK_Halt()  returns 0x00 (0000ms, 1077ms total)
T4298 001:161 JLINK_IsHalted()  returns TRUE (0001ms, 1078ms total)
T4298 001:169 JLINK_WriteMem(0x20000000, 0x053C Bytes, ...) - Data: 00 BE 0A E0 0D 78 2D 06 68 40 08 24 40 00 00 D3 ... -- CPU_WriteMem(1340 bytes @ 0x20000000)  returns 0x53C (0016ms, 1093ms total)
T4298 001:185 JLINK_WriteReg(R0, 0x00000000)  returns 0x00 (0000ms, 1093ms total)
T4298 001:185 JLINK_WriteReg(R1, 0x00B71B00)  returns 0x00 (0000ms, 1093ms total)
T4298 001:185 JLINK_WriteReg(R2, 0x00000001)  returns 0x00 (0000ms, 1093ms total)
T4298 001:185 JLINK_WriteReg(R3, 0x00000000)  returns 0x00 (0000ms, 1093ms total)
T4298 001:185 JLINK_WriteReg(R4, 0x00000000)  returns 0x00 (0001ms, 1094ms total)
T4298 001:186 JLINK_WriteReg(R5, 0x00000000)  returns 0x00 (0000ms, 1094ms total)
T4298 001:186 JLINK_WriteReg(R6, 0x00000000)  returns 0x00 (0000ms, 1094ms total)
T4298 001:186 JLINK_WriteReg(R7, 0x00000000)  returns 0x00 (0000ms, 1094ms total)
T4298 001:186 JLINK_WriteReg(R8, 0x00000000)  returns 0x00 (0000ms, 1094ms total)
T4298 001:186 JLINK_WriteReg(R9, 0x20000530)  returns 0x00 (0000ms, 1094ms total)
T4298 001:186 JLINK_WriteReg(R10, 0x00000000)  returns 0x00 (0000ms, 1094ms total)
T4298 001:186 JLINK_WriteReg(R11, 0x00000000)  returns 0x00 (0000ms, 1094ms total)
T4298 001:186 JLINK_WriteReg(R12, 0x00000000)  returns 0x00 (0000ms, 1094ms total)
T4298 001:186 JLINK_WriteReg(R13 (SP), 0x20001000)  returns 0x00 (0000ms, 1094ms total)
T4298 001:186 JLINK_WriteReg(R14, 0x20000001)  returns 0x00 (0000ms, 1094ms total)
T4298 001:186 JLINK_WriteReg(R15 (PC), 0x20000020)  returns 0x00 (0000ms, 1094ms total)
T4298 001:186 JLINK_WriteReg(XPSR, 0x01000000)  returns 0x00 (0000ms, 1094ms total)
T4298 001:186 JLINK_WriteReg(MSP, 0x20001000)  returns 0x00 (0000ms, 1094ms total)
T4298 001:186 JLINK_WriteReg(PSP, 0x20001000)  returns 0x00 (0000ms, 1094ms total)
T4298 001:186 JLINK_WriteReg(CFBP, 0x00000000)  returns 0x00 (0000ms, 1094ms total)
T4298 001:186 JLINK_SetBPEx(Addr = 0x20000000, Type = 0xFFFFFFF2) -- CPU_ReadMem(2 bytes @ 0x20000000)  returns 0x00000001 (0001ms, 1095ms total)
T4298 001:187 JLINK_Go() -- CPU_WriteMem(2 bytes @ 0x20000000) -- CPU_ReadMem(4 bytes @ 0xE0001000) -- CPU_WriteMem(4 bytes @ 0xE0001000) -- CPU_WriteMem(4 bytes @ 0xE0002008) -- CPU_WriteMem(4 bytes @ 0xE000200C) -- CPU_WriteMem(4 bytes @ 0xE0001004) (0008ms, 1103ms total)
T4298 001:195 JLINK_IsHalted() -- CPU_ReadMem(2 bytes @ 0x20000000)  returns TRUE (0005ms, 1108ms total)
T4298 001:200 JLINK_ReadReg(R15 (PC))  returns 0x20000000 (0000ms, 1103ms total)
T4298 001:200 JLINK_ClrBPEx(BPHandle = 0x00000001)  returns 0x00 (0000ms, 1103ms total)
T4298 001:201 JLINK_ReadReg(R0)  returns 0x00000000 (0000ms, 1103ms total)
T4298 001:201 JLINK_WriteReg(R0, 0x00000000)  returns 0x00 (0000ms, 1103ms total)
T4298 001:201 JLINK_WriteReg(R1, 0x00000800)  returns 0x00 (0000ms, 1103ms total)
T4298 001:201 JLINK_WriteReg(R2, 0x000000FF)  returns 0x00 (0000ms, 1103ms total)
T4298 001:201 JLINK_WriteReg(R3, 0x00000000)  returns 0x00 (0000ms, 1103ms total)
T4298 001:201 JLINK_WriteReg(R4, 0x00000000)  returns 0x00 (0000ms, 1103ms total)
T4298 001:201 JLINK_WriteReg(R5, 0x00000000)  returns 0x00 (0001ms, 1104ms total)
T4298 001:202 JLINK_WriteReg(R6, 0x00000000)  returns 0x00 (0000ms, 1104ms total)
T4298 001:202 JLINK_WriteReg(R7, 0x00000000)  returns 0x00 (0000ms, 1104ms total)
T4298 001:202 JLINK_WriteReg(R8, 0x00000000)  returns 0x00 (0000ms, 1104ms total)
T4298 001:202 JLINK_WriteReg(R9, 0x20000530)  returns 0x00 (0000ms, 1104ms total)
T4298 001:202 JLINK_WriteReg(R10, 0x00000000)  returns 0x00 (0000ms, 1104ms total)
T4298 001:202 JLINK_WriteReg(R11, 0x00000000)  returns 0x00 (0000ms, 1104ms total)
T4298 001:202 JLINK_WriteReg(R12, 0x00000000)  returns 0x00 (0000ms, 1104ms total)
T4298 001:202 JLINK_WriteReg(R13 (SP), 0x20001000)  returns 0x00 (0000ms, 1104ms total)
T4298 001:202 JLINK_WriteReg(R14, 0x20000001)  returns 0x00 (0000ms, 1104ms total)
T4298 001:202 JLINK_WriteReg(R15 (PC), 0x20000076)  returns 0x00 (0000ms, 1104ms total)
T4298 001:202 JLINK_WriteReg(XPSR, 0x01000000)  returns 0x00 (0000ms, 1104ms total)
T4298 001:202 JLINK_WriteReg(MSP, 0x20001000)  returns 0x00 (0000ms, 1104ms total)
T4298 001:202 JLINK_WriteReg(PSP, 0x20001000)  returns 0x00 (0000ms, 1104ms total)
T4298 001:202 JLINK_WriteReg(CFBP, 0x00000000)  returns 0x00 (0000ms, 1104ms total)
T4298 001:202 JLINK_SetBPEx(Addr = 0x20000000, Type = 0xFFFFFFF2)  returns 0x00000002 (0000ms, 1104ms total)
T4298 001:202 JLINK_Go() -- CPU_ReadMem(4 bytes @ 0xE0001000) -- CPU_WriteMem(4 bytes @ 0xE0001000) (0004ms, 1108ms total)
T4298 001:206 JLINK_IsHalted() -- CPU_ReadMem(2 bytes @ 0x20000000)  returns TRUE (0005ms, 1113ms total)
T4298 001:211 JLINK_ReadReg(R15 (PC))  returns 0x20000000 (0001ms, 1109ms total)
T4298 001:212 JLINK_ClrBPEx(BPHandle = 0x00000002)  returns 0x00 (0000ms, 1109ms total)
T4298 001:212 JLINK_ReadReg(R0)  returns 0x00000001 (0000ms, 1109ms total)
T4298 001:212 JLINK_WriteReg(R0, 0x00000000)  returns 0x00 (0000ms, 1109ms total)
T4298 001:212 JLINK_WriteReg(R1, 0x00000800)  returns 0x00 (0000ms, 1109ms total)
T4298 001:212 JLINK_WriteReg(R2, 0x000000FF)  returns 0x00 (0000ms, 1109ms total)
T4298 001:212 JLINK_WriteReg(R3, 0x00000000)  returns 0x00 (0000ms, 1109ms total)
T4298 001:212 JLINK_WriteReg(R4, 0x00000000)  returns 0x00 (0000ms, 1109ms total)
T4298 001:212 JLINK_WriteReg(R5, 0x00000000)  returns 0x00 (0000ms, 1109ms total)
T4298 001:212 JLINK_WriteReg(R6, 0x00000000)  returns 0x00 (0000ms, 1109ms total)
T4298 001:212 JLINK_WriteReg(R7, 0x00000000)  returns 0x00 (0000ms, 1109ms total)
T4298 001:212 JLINK_WriteReg(R8, 0x00000000)  returns 0x00 (0000ms, 1109ms total)
T4298 001:212 JLINK_WriteReg(R9, 0x20000530)  returns 0x00 (0000ms, 1109ms total)
T4298 001:212 JLINK_WriteReg(R10, 0x00000000)  returns 0x00 (0000ms, 1109ms total)
T4298 001:212 JLINK_WriteReg(R11, 0x00000000)  returns 0x00 (0000ms, 1109ms total)
T4298 001:212 JLINK_WriteReg(R12, 0x00000000)  returns 0x00 (0000ms, 1109ms total)
T4298 001:213 JLINK_WriteReg(R13 (SP), 0x20001000)  returns 0x00 (0000ms, 1110ms total)
T4298 001:213 JLINK_WriteReg(R14, 0x20000001)  returns 0x00 (0000ms, 1110ms total)
T4298 001:213 JLINK_WriteReg(R15 (PC), 0x200000CC)  returns 0x00 (0000ms, 1110ms total)
T4298 001:213 JLINK_WriteReg(XPSR, 0x01000000)  returns 0x00 (0000ms, 1110ms total)
T4298 001:213 JLINK_WriteReg(MSP, 0x20001000)  returns 0x00 (0000ms, 1110ms total)
T4298 001:213 JLINK_WriteReg(PSP, 0x20001000)  returns 0x00 (0000ms, 1110ms total)
T4298 001:213 JLINK_WriteReg(CFBP, 0x00000000)  returns 0x00 (0000ms, 1110ms total)
T4298 001:213 JLINK_SetBPEx(Addr = 0x20000000, Type = 0xFFFFFFF2)  returns 0x00000003 (0000ms, 1110ms total)
T4298 001:213 JLINK_Go() -- CPU_ReadMem(4 bytes @ 0xE0001000) -- CPU_WriteMem(4 bytes @ 0xE0001000) (0004ms, 1114ms total)
T4298 001:217 JLINK_IsHalted()  returns FALSE (0000ms, 1114ms total)
T4298 001:323 JLINK_IsHalted() -- CPU_ReadMem(2 bytes @ 0x20000000)  returns TRUE (0005ms, 1119ms total)
T4298 001:328 JLINK_ReadReg(R15 (PC))  returns 0x20000000 (0000ms, 1114ms total)
T4298 001:328 JLINK_ClrBPEx(BPHandle = 0x00000003)  returns 0x00 (0000ms, 1114ms total)
T4298 001:328 JLINK_ReadReg(R0)  returns 0x00000000 (0000ms, 1114ms total)
T4298 001:330 JLINK_WriteReg(R0, 0x00000800)  returns 0x00 (0000ms, 1114ms total)
T4298 001:330 JLINK_WriteReg(R1, 0x00000800)  returns 0x00 (0000ms, 1114ms total)
T4298 001:330 JLINK_WriteReg(R2, 0x000000FF)  returns 0x00 (0000ms, 1114ms total)
T4298 001:330 JLINK_WriteReg(R3, 0x00000000)  returns 0x00 (0000ms, 1114ms total)
T4298 001:330 JLINK_WriteReg(R4, 0x00000000)  returns 0x00 (0000ms, 1114ms total)
T4298 001:330 JLINK_WriteReg(R5, 0x00000000)  returns 0x00 (0000ms, 1114ms total)
T4298 001:330 JLINK_WriteReg(R6, 0x00000000)  returns 0x00 (0000ms, 1114ms total)
T4298 001:330 JLINK_WriteReg(R7, 0x00000000)  returns 0x00 (0000ms, 1114ms total)
T4298 001:330 JLINK_WriteReg(R8, 0x00000000)  returns 0x00 (0000ms, 1114ms total)
T4298 001:330 JLINK_WriteReg(R9, 0x20000530)  returns 0x00 (0000ms, 1114ms total)
T4298 001:330 JLINK_WriteReg(R10, 0x00000000)  returns 0x00 (0000ms, 1114ms total)
T4298 001:330 JLINK_WriteReg(R11, 0x00000000)  returns 0x00 (0000ms, 1114ms total)
T4298 001:330 JLINK_WriteReg(R12, 0x00000000)  returns 0x00 (0000ms, 1114ms total)
T4298 001:330 JLINK_WriteReg(R13 (SP), 0x20001000)  returns 0x00 (0000ms, 1114ms total)
T4298 001:330 JLINK_WriteReg(R14, 0x20000001)  returns 0x00 (0000ms, 1114ms total)
T4298 001:330 JLINK_WriteReg(R15 (PC), 0x20000076)  returns 0x00 (0001ms, 1115ms total)
T4298 001:331 JLINK_WriteReg(XPSR, 0x01000000)  returns 0x00 (0000ms, 1115ms total)
T4298 001:331 JLINK_WriteReg(MSP, 0x20001000)  returns 0x00 (0000ms, 1115ms total)
T4298 001:331 JLINK_WriteReg(PSP, 0x20001000)  returns 0x00 (0000ms, 1115ms total)
T4298 001:331 JLINK_WriteReg(CFBP, 0x00000000)  returns 0x00 (0000ms, 1115ms total)
T4298 001:331 JLINK_SetBPEx(Addr = 0x20000000, Type = 0xFFFFFFF2)  returns 0x00000004 (0000ms, 1115ms total)
T4298 001:331 JLINK_Go() -- CPU_ReadMem(4 bytes @ 0xE0001000) -- CPU_WriteMem(4 bytes @ 0xE0001000) (0004ms, 1119ms total)
T4298 001:335 JLINK_IsHalted() -- CPU_ReadMem(2 bytes @ 0x20000000)  returns TRUE (0005ms, 1124ms total)
T4298 001:340 JLINK_ReadReg(R15 (PC))  returns 0x20000000 (0000ms, 1119ms total)
T4298 001:340 JLINK_ClrBPEx(BPHandle = 0x00000004)  returns 0x00 (0000ms, 1119ms total)
T4298 001:340 JLINK_ReadReg(R0)  returns 0x00000001 (0001ms, 1120ms total)
T4298 001:341 JLINK_WriteReg(R0, 0x00000800)  returns 0x00 (0000ms, 1120ms total)
T4298 001:341 JLINK_WriteReg(R1, 0x00000800)  returns 0x00 (0000ms, 1120ms total)
T4298 001:341 JLINK_WriteReg(R2, 0x000000FF)  returns 0x00 (0000ms, 1120ms total)
T4298 001:341 JLINK_WriteReg(R3, 0x00000000)  returns 0x00 (0000ms, 1120ms total)
T4298 001:341 JLINK_WriteReg(R4, 0x00000000)  returns 0x00 (0000ms, 1120ms total)
T4298 001:341 JLINK_WriteReg(R5, 0x00000000)  returns 0x00 (0000ms, 1120ms total)
T4298 001:341 JLINK_WriteReg(R6, 0x00000000)  returns 0x00 (0000ms, 1120ms total)
T4298 001:341 JLINK_WriteReg(R7, 0x00000000)  returns 0x00 (0000ms, 1120ms total)
T4298 001:341 JLINK_WriteReg(R8, 0x00000000)  returns 0x00 (0000ms, 1120ms total)
T4298 001:341 JLINK_WriteReg(R9, 0x20000530)  returns 0x00 (0000ms, 1120ms total)
T4298 001:341 JLINK_WriteReg(R10, 0x00000000)  returns 0x00 (0000ms, 1120ms total)
T4298 001:341 JLINK_WriteReg(R11, 0x00000000)  returns 0x00 (0000ms, 1120ms total)
T4298 001:341 JLINK_WriteReg(R12, 0x00000000)  returns 0x00 (0000ms, 1120ms total)
T4298 001:341 JLINK_WriteReg(R13 (SP), 0x20001000)  returns 0x00 (0000ms, 1120ms total)
T4298 001:341 JLINK_WriteReg(R14, 0x20000001)  returns 0x00 (0000ms, 1120ms total)
T4298 001:341 JLINK_WriteReg(R15 (PC), 0x200000CC)  returns 0x00 (0000ms, 1120ms total)
T4298 001:341 JLINK_WriteReg(XPSR, 0x01000000)  returns 0x00 (0001ms, 1121ms total)
T4298 001:342 JLINK_WriteReg(MSP, 0x20001000)  returns 0x00 (0000ms, 1121ms total)
T4298 001:342 JLINK_WriteReg(PSP, 0x20001000)  returns 0x00 (0000ms, 1121ms total)
T4298 001:342 JLINK_WriteReg(CFBP, 0x00000000)  returns 0x00 (0000ms, 1121ms total)
T4298 001:342 JLINK_SetBPEx(Addr = 0x20000000, Type = 0xFFFFFFF2)  returns 0x00000005 (0000ms, 1121ms total)
T4298 001:342 JLINK_Go() -- CPU_ReadMem(4 bytes @ 0xE0001000) -- CPU_WriteMem(4 bytes @ 0xE0001000) (0004ms, 1125ms total)
T4298 001:346 JLINK_IsHalted()  returns FALSE (0001ms, 1126ms total)
T4298 001:349 JLINK_IsHalted()  returns FALSE (0000ms, 1125ms total)
T4298 001:354 JLINK_IsHalted() -- CPU_ReadMem(2 bytes @ 0x20000000)  returns TRUE (0005ms, 1130ms total)
T4298 001:359 JLINK_ReadReg(R15 (PC))  returns 0x20000000 (0000ms, 1125ms total)
T4298 001:359 JLINK_ClrBPEx(BPHandle = 0x00000005)  returns 0x00 (0001ms, 1126ms total)
T4298 001:360 JLINK_ReadReg(R0)  returns 0x00000000 (0000ms, 1126ms total)
T4298 001:361 JLINK_WriteReg(R0, 0x00001000)  returns 0x00 (0000ms, 1126ms total)
T4298 001:361 JLINK_WriteReg(R1, 0x00000800)  returns 0x00 (0000ms, 1126ms total)
T4298 001:361 JLINK_WriteReg(R2, 0x000000FF)  returns 0x00 (0000ms, 1126ms total)
T4298 001:361 JLINK_WriteReg(R3, 0x00000000)  returns 0x00 (0000ms, 1126ms total)
T4298 001:361 JLINK_WriteReg(R4, 0x00000000)  returns 0x00 (0000ms, 1126ms total)
T4298 001:361 JLINK_WriteReg(R5, 0x00000000)  returns 0x00 (0000ms, 1126ms total)
T4298 001:361 JLINK_WriteReg(R6, 0x00000000)  returns 0x00 (0000ms, 1126ms total)
T4298 001:361 JLINK_WriteReg(R7, 0x00000000)  returns 0x00 (0000ms, 1126ms total)
T4298 001:362 JLINK_WriteReg(R8, 0x00000000)  returns 0x00 (0000ms, 1126ms total)
T4298 001:362 JLINK_WriteReg(R9, 0x20000530)  returns 0x00 (0000ms, 1126ms total)
T4298 001:362 JLINK_WriteReg(R10, 0x00000000)  returns 0x00 (0000ms, 1126ms total)
T4298 001:362 JLINK_WriteReg(R11, 0x00000000)  returns 0x00 (0000ms, 1126ms total)
T4298 001:362 JLINK_WriteReg(R12, 0x00000000)  returns 0x00 (0000ms, 1126ms total)
T4298 001:362 JLINK_WriteReg(R13 (SP), 0x20001000)  returns 0x00 (0000ms, 1126ms total)
T4298 001:362 JLINK_WriteReg(R14, 0x20000001)  returns 0x00 (0000ms, 1126ms total)
T4298 001:362 JLINK_WriteReg(R15 (PC), 0x20000076)  returns 0x00 (0000ms, 1126ms total)
T4298 001:362 JLINK_WriteReg(XPSR, 0x01000000)  returns 0x00 (0000ms, 1126ms total)
T4298 001:362 JLINK_WriteReg(MSP, 0x20001000)  returns 0x00 (0000ms, 1126ms total)
T4298 001:362 JLINK_WriteReg(PSP, 0x20001000)  returns 0x00 (0000ms, 1126ms total)
T4298 001:362 JLINK_WriteReg(CFBP, 0x00000000)  returns 0x00 (0000ms, 1126ms total)
T4298 001:362 JLINK_SetBPEx(Addr = 0x20000000, Type = 0xFFFFFFF2)  returns 0x00000006 (0000ms, 1126ms total)
T4298 001:362 JLINK_Go() -- CPU_ReadMem(4 bytes @ 0xE0001000) -- CPU_WriteMem(4 bytes @ 0xE0001000) (0004ms, 1130ms total)
T4298 001:366 JLINK_IsHalted() -- CPU_ReadMem(2 bytes @ 0x20000000)  returns TRUE (0006ms, 1136ms total)
T4298 001:372 JLINK_ReadReg(R15 (PC))  returns 0x20000000 (0000ms, 1130ms total)
T4298 001:372 JLINK_ClrBPEx(BPHandle = 0x00000006)  returns 0x00 (0000ms, 1130ms total)
T4298 001:372 JLINK_ReadReg(R0)  returns 0x00000001 (0000ms, 1130ms total)
T4298 001:372 JLINK_WriteReg(R0, 0x00001000)  returns 0x00 (0000ms, 1130ms total)
T4298 001:372 JLINK_WriteReg(R1, 0x00000800)  returns 0x00 (0000ms, 1130ms total)
T4298 001:372 JLINK_WriteReg(R2, 0x000000FF)  returns 0x00 (0000ms, 1130ms total)
T4298 001:372 JLINK_WriteReg(R3, 0x00000000)  returns 0x00 (0000ms, 1130ms total)
T4298 001:373 JLINK_WriteReg(R4, 0x00000000)  returns 0x00 (0000ms, 1131ms total)
T4298 001:373 JLINK_WriteReg(R5, 0x00000000)  returns 0x00 (0000ms, 1131ms total)
T4298 001:373 JLINK_WriteReg(R6, 0x00000000)  returns 0x00 (0000ms, 1131ms total)
T4298 001:373 JLINK_WriteReg(R7, 0x00000000)  returns 0x00 (0000ms, 1131ms total)
T4298 001:373 JLINK_WriteReg(R8, 0x00000000)  returns 0x00 (0000ms, 1131ms total)
T4298 001:373 JLINK_WriteReg(R9, 0x20000530)  returns 0x00 (0000ms, 1131ms total)
T4298 001:373 JLINK_WriteReg(R10, 0x00000000)  returns 0x00 (0000ms, 1131ms total)
T4298 001:373 JLINK_WriteReg(R11, 0x00000000)  returns 0x00 (0000ms, 1131ms total)
T4298 001:373 JLINK_WriteReg(R12, 0x00000000)  returns 0x00 (0000ms, 1131ms total)
T4298 001:373 JLINK_WriteReg(R13 (SP), 0x20001000)  returns 0x00 (0000ms, 1131ms total)
T4298 001:373 JLINK_WriteReg(R14, 0x20000001)  returns 0x00 (0000ms, 1131ms total)
T4298 001:373 JLINK_WriteReg(R15 (PC), 0x200000CC)  returns 0x00 (0000ms, 1131ms total)
T4298 001:373 JLINK_WriteReg(XPSR, 0x01000000)  returns 0x00 (0000ms, 1131ms total)
T4298 001:373 JLINK_WriteReg(MSP, 0x20001000)  returns 0x00 (0000ms, 1131ms total)
T4298 001:373 JLINK_WriteReg(PSP, 0x20001000)  returns 0x00 (0000ms, 1131ms total)
T4298 001:373 JLINK_WriteReg(CFBP, 0x00000000)  returns 0x00 (0000ms, 1131ms total)
T4298 001:374 JLINK_SetBPEx(Addr = 0x20000000, Type = 0xFFFFFFF2)  returns 0x00000007 (0000ms, 1131ms total)
T4298 001:374 JLINK_Go() -- CPU_ReadMem(4 bytes @ 0xE0001000) -- CPU_WriteMem(4 bytes @ 0xE0001000) (0003ms, 1134ms total)
T4298 001:377 JLINK_IsHalted()  returns FALSE (0001ms, 1135ms total)
T4298 001:413 JLINK_IsHalted() -- CPU_ReadMem(2 bytes @ 0x20000000)  returns TRUE (0005ms, 1139ms total)
T4298 001:418 JLINK_ReadReg(R15 (PC))  returns 0x20000000 (0000ms, 1134ms total)
T4298 001:418 JLINK_ClrBPEx(BPHandle = 0x00000007)  returns 0x00 (0000ms, 1134ms total)
T4298 001:418 JLINK_ReadReg(R0)  returns 0x00000000 (0000ms, 1134ms total)
T4298 001:420 JLINK_WriteReg(R0, 0x00001800)  returns 0x00 (0000ms, 1134ms total)
T4298 001:420 JLINK_WriteReg(R1, 0x00000800)  returns 0x00 (0000ms, 1134ms total)
T4298 001:420 JLINK_WriteReg(R2, 0x000000FF)  returns 0x00 (0000ms, 1134ms total)
T4298 001:420 JLINK_WriteReg(R3, 0x00000000)  returns 0x00 (0000ms, 1134ms total)
T4298 001:420 JLINK_WriteReg(R4, 0x00000000)  returns 0x00 (0000ms, 1134ms total)
T4298 001:420 JLINK_WriteReg(R5, 0x00000000)  returns 0x00 (0001ms, 1135ms total)
T4298 001:421 JLINK_WriteReg(R6, 0x00000000)  returns 0x00 (0000ms, 1135ms total)
T4298 001:421 JLINK_WriteReg(R7, 0x00000000)  returns 0x00 (0000ms, 1135ms total)
T4298 001:421 JLINK_WriteReg(R8, 0x00000000)  returns 0x00 (0000ms, 1135ms total)
T4298 001:421 JLINK_WriteReg(R9, 0x20000530)  returns 0x00 (0000ms, 1135ms total)
T4298 001:421 JLINK_WriteReg(R10, 0x00000000)  returns 0x00 (0000ms, 1135ms total)
T4298 001:421 JLINK_WriteReg(R11, 0x00000000)  returns 0x00 (0000ms, 1135ms total)
T4298 001:421 JLINK_WriteReg(R12, 0x00000000)  returns 0x00 (0000ms, 1135ms total)
T4298 001:421 JLINK_WriteReg(R13 (SP), 0x20001000)  returns 0x00 (0000ms, 1135ms total)
T4298 001:421 JLINK_WriteReg(R14, 0x20000001)  returns 0x00 (0000ms, 1135ms total)
T4298 001:421 JLINK_WriteReg(R15 (PC), 0x20000076)  returns 0x00 (0000ms, 1135ms total)
T4298 001:421 JLINK_WriteReg(XPSR, 0x01000000)  returns 0x00 (0000ms, 1135ms total)
T4298 001:421 JLINK_WriteReg(MSP, 0x20001000)  returns 0x00 (0000ms, 1135ms total)
T4298 001:421 JLINK_WriteReg(PSP, 0x20001000)  returns 0x00 (0000ms, 1135ms total)
T4298 001:421 JLINK_WriteReg(CFBP, 0x00000000)  returns 0x00 (0000ms, 1135ms total)
T4298 001:421 JLINK_SetBPEx(Addr = 0x20000000, Type = 0xFFFFFFF2)  returns 0x00000008 (0000ms, 1135ms total)
T4298 001:421 JLINK_Go() -- CPU_ReadMem(4 bytes @ 0xE0001000) -- CPU_WriteMem(4 bytes @ 0xE0001000) (0004ms, 1139ms total)
T4298 001:425 JLINK_IsHalted() -- CPU_ReadMem(2 bytes @ 0x20000000)  returns TRUE (0006ms, 1145ms total)
T4298 001:431 JLINK_ReadReg(R15 (PC))  returns 0x20000000 (0000ms, 1139ms total)
T4298 001:431 JLINK_ClrBPEx(BPHandle = 0x00000008)  returns 0x00 (0000ms, 1139ms total)
T4298 001:431 JLINK_ReadReg(R0)  returns 0x00000001 (0000ms, 1139ms total)
T4298 001:431 JLINK_WriteReg(R0, 0x00001800)  returns 0x00 (0000ms, 1139ms total)
T4298 001:431 JLINK_WriteReg(R1, 0x00000800)  returns 0x00 (0000ms, 1139ms total)
T4298 001:431 JLINK_WriteReg(R2, 0x000000FF)  returns 0x00 (0001ms, 1140ms total)
T4298 001:432 JLINK_WriteReg(R3, 0x00000000)  returns 0x00 (0000ms, 1140ms total)
T4298 001:432 JLINK_WriteReg(R4, 0x00000000)  returns 0x00 (0000ms, 1140ms total)
T4298 001:432 JLINK_WriteReg(R5, 0x00000000)  returns 0x00 (0000ms, 1140ms total)
T4298 001:432 JLINK_WriteReg(R6, 0x00000000)  returns 0x00 (0000ms, 1140ms total)
T4298 001:432 JLINK_WriteReg(R7, 0x00000000)  returns 0x00 (0000ms, 1140ms total)
T4298 001:432 JLINK_WriteReg(R8, 0x00000000)  returns 0x00 (0000ms, 1140ms total)
T4298 001:432 JLINK_WriteReg(R9, 0x20000530)  returns 0x00 (0000ms, 1140ms total)
T4298 001:432 JLINK_WriteReg(R10, 0x00000000)  returns 0x00 (0000ms, 1140ms total)
T4298 001:432 JLINK_WriteReg(R11, 0x00000000)  returns 0x00 (0000ms, 1140ms total)
T4298 001:432 JLINK_WriteReg(R12, 0x00000000)  returns 0x00 (0000ms, 1140ms total)
T4298 001:432 JLINK_WriteReg(R13 (SP), 0x20001000)  returns 0x00 (0000ms, 1140ms total)
T4298 001:432 JLINK_WriteReg(R14, 0x20000001)  returns 0x00 (0000ms, 1140ms total)
T4298 001:432 JLINK_WriteReg(R15 (PC), 0x200000CC)  returns 0x00 (0000ms, 1140ms total)
T4298 001:432 JLINK_WriteReg(XPSR, 0x01000000)  returns 0x00 (0000ms, 1140ms total)
T4298 001:432 JLINK_WriteReg(MSP, 0x20001000)  returns 0x00 (0000ms, 1140ms total)
T4298 001:432 JLINK_WriteReg(PSP, 0x20001000)  returns 0x00 (0000ms, 1140ms total)
T4298 001:432 JLINK_WriteReg(CFBP, 0x00000000)  returns 0x00 (0000ms, 1140ms total)
T4298 001:433 JLINK_SetBPEx(Addr = 0x20000000, Type = 0xFFFFFFF2)  returns 0x00000009 (0000ms, 1141ms total)
T4298 001:433 JLINK_Go() -- CPU_ReadMem(4 bytes @ 0xE0001000) -- CPU_WriteMem(4 bytes @ 0xE0001000) (0003ms, 1144ms total)
T4298 001:436 JLINK_IsHalted()  returns FALSE (0001ms, 1145ms total)
T4298 001:439 JLINK_IsHalted()  returns FALSE (0000ms, 1144ms total)
T4298 001:441 JLINK_IsHalted()  returns FALSE (0000ms, 1144ms total)
T4298 001:443 JLINK_IsHalted() -- CPU_ReadMem(2 bytes @ 0x20000000)  returns TRUE (0005ms, 1149ms total)
T4298 001:448 JLINK_ReadReg(R15 (PC))  returns 0x20000000 (0000ms, 1144ms total)
T4298 001:448 JLINK_ClrBPEx(BPHandle = 0x00000009)  returns 0x00 (0000ms, 1144ms total)
T4298 001:448 JLINK_ReadReg(R0)  returns 0x00000000 (0000ms, 1144ms total)
T4298 001:449 JLINK_WriteReg(R0, 0x00002000)  returns 0x00 (0000ms, 1144ms total)
T4298 001:449 JLINK_WriteReg(R1, 0x00000800)  returns 0x00 (0001ms, 1145ms total)
T4298 001:450 JLINK_WriteReg(R2, 0x000000FF)  returns 0x00 (0000ms, 1145ms total)
T4298 001:450 JLINK_WriteReg(R3, 0x00000000)  returns 0x00 (0000ms, 1145ms total)
T4298 001:450 JLINK_WriteReg(R4, 0x00000000)  returns 0x00 (0000ms, 1145ms total)
T4298 001:450 JLINK_WriteReg(R5, 0x00000000)  returns 0x00 (0000ms, 1145ms total)
T4298 001:450 JLINK_WriteReg(R6, 0x00000000)  returns 0x00 (0000ms, 1145ms total)
T4298 001:450 JLINK_WriteReg(R7, 0x00000000)  returns 0x00 (0000ms, 1145ms total)
T4298 001:450 JLINK_WriteReg(R8, 0x00000000)  returns 0x00 (0000ms, 1145ms total)
T4298 001:450 JLINK_WriteReg(R9, 0x20000530)  returns 0x00 (0000ms, 1145ms total)
T4298 001:450 JLINK_WriteReg(R10, 0x00000000)  returns 0x00 (0000ms, 1145ms total)
T4298 001:450 JLINK_WriteReg(R11, 0x00000000)  returns 0x00 (0000ms, 1145ms total)
T4298 001:450 JLINK_WriteReg(R12, 0x00000000)  returns 0x00 (0000ms, 1145ms total)
T4298 001:450 JLINK_WriteReg(R13 (SP), 0x20001000)  returns 0x00 (0000ms, 1145ms total)
T4298 001:450 JLINK_WriteReg(R14, 0x20000001)  returns 0x00 (0000ms, 1145ms total)
T4298 001:450 JLINK_WriteReg(R15 (PC), 0x20000076)  returns 0x00 (0001ms, 1146ms total)
T4298 001:451 JLINK_WriteReg(XPSR, 0x01000000)  returns 0x00 (0000ms, 1146ms total)
T4298 001:451 JLINK_WriteReg(MSP, 0x20001000)  returns 0x00 (0000ms, 1146ms total)
T4298 001:451 JLINK_WriteReg(PSP, 0x20001000)  returns 0x00 (0000ms, 1146ms total)
T4298 001:451 JLINK_WriteReg(CFBP, 0x00000000)  returns 0x00 (0000ms, 1146ms total)
T4298 001:451 JLINK_SetBPEx(Addr = 0x20000000, Type = 0xFFFFFFF2)  returns 0x0000000A (0000ms, 1146ms total)
T4298 001:451 JLINK_Go() -- CPU_ReadMem(4 bytes @ 0xE0001000) -- CPU_WriteMem(4 bytes @ 0xE0001000) (0004ms, 1150ms total)
T4298 001:455 JLINK_IsHalted() -- CPU_ReadMem(2 bytes @ 0x20000000)  returns TRUE (0005ms, 1155ms total)
T4298 001:460 JLINK_ReadReg(R15 (PC))  returns 0x20000000 (0000ms, 1150ms total)
T4298 001:460 JLINK_ClrBPEx(BPHandle = 0x0000000A)  returns 0x00 (0000ms, 1150ms total)
T4298 001:460 JLINK_ReadReg(R0)  returns 0x00000001 (0000ms, 1150ms total)
T4298 001:460 JLINK_WriteReg(R0, 0x00002000)  returns 0x00 (0001ms, 1151ms total)
T4298 001:461 JLINK_WriteReg(R1, 0x00000800)  returns 0x00 (0000ms, 1151ms total)
T4298 001:461 JLINK_WriteReg(R2, 0x000000FF)  returns 0x00 (0000ms, 1151ms total)
T4298 001:461 JLINK_WriteReg(R3, 0x00000000)  returns 0x00 (0000ms, 1151ms total)
T4298 001:461 JLINK_WriteReg(R4, 0x00000000)  returns 0x00 (0000ms, 1151ms total)
T4298 001:461 JLINK_WriteReg(R5, 0x00000000)  returns 0x00 (0000ms, 1151ms total)
T4298 001:461 JLINK_WriteReg(R6, 0x00000000)  returns 0x00 (0000ms, 1151ms total)
T4298 001:461 JLINK_WriteReg(R7, 0x00000000)  returns 0x00 (0000ms, 1151ms total)
T4298 001:461 JLINK_WriteReg(R8, 0x00000000)  returns 0x00 (0000ms, 1151ms total)
T4298 001:461 JLINK_WriteReg(R9, 0x20000530)  returns 0x00 (0000ms, 1151ms total)
T4298 001:461 JLINK_WriteReg(R10, 0x00000000)  returns 0x00 (0000ms, 1151ms total)
T4298 001:461 JLINK_WriteReg(R11, 0x00000000)  returns 0x00 (0000ms, 1151ms total)
T4298 001:461 JLINK_WriteReg(R12, 0x00000000)  returns 0x00 (0000ms, 1151ms total)
T4298 001:461 JLINK_WriteReg(R13 (SP), 0x20001000)  returns 0x00 (0000ms, 1151ms total)
T4298 001:461 JLINK_WriteReg(R14, 0x20000001)  returns 0x00 (0000ms, 1151ms total)
T4298 001:461 JLINK_WriteReg(R15 (PC), 0x200000CC)  returns 0x00 (0000ms, 1151ms total)
T4298 001:461 JLINK_WriteReg(XPSR, 0x01000000)  returns 0x00 (0000ms, 1151ms total)
T4298 001:462 JLINK_WriteReg(MSP, 0x20001000)  returns 0x00 (0000ms, 1151ms total)
T4298 001:462 JLINK_WriteReg(PSP, 0x20001000)  returns 0x00 (0000ms, 1151ms total)
T4298 001:462 JLINK_WriteReg(CFBP, 0x00000000)  returns 0x00 (0000ms, 1151ms total)
T4298 001:462 JLINK_SetBPEx(Addr = 0x20000000, Type = 0xFFFFFFF2)  returns 0x0000000B (0000ms, 1151ms total)
T4298 001:462 JLINK_Go() -- CPU_ReadMem(4 bytes @ 0xE0001000) -- CPU_WriteMem(4 bytes @ 0xE0001000) (0004ms, 1155ms total)
T4298 001:466 JLINK_IsHalted()  returns FALSE (0000ms, 1155ms total)
T4298 001:468 JLINK_IsHalted()  returns FALSE (0000ms, 1155ms total)
T4298 001:484 JLINK_IsHalted() -- CPU_ReadMem(2 bytes @ 0x20000000)  returns TRUE (0005ms, 1160ms total)
T4298 001:489 JLINK_ReadReg(R15 (PC))  returns 0x20000000 (0000ms, 1155ms total)
T4298 001:489 JLINK_ClrBPEx(BPHandle = 0x0000000B)  returns 0x00 (0000ms, 1155ms total)
T4298 001:489 JLINK_ReadReg(R0)  returns 0x00000000 (0000ms, 1155ms total)
T4298 001:490 JLINK_WriteReg(R0, 0x00000001)  returns 0x00 (0000ms, 1156ms total)
T4298 001:490 JLINK_WriteReg(R1, 0x00000800)  returns 0x00 (0000ms, 1156ms total)
T4298 001:490 JLINK_WriteReg(R2, 0x000000FF)  returns 0x00 (0000ms, 1156ms total)
T4298 001:490 JLINK_WriteReg(R3, 0x00000000)  returns 0x00 (0001ms, 1157ms total)
T4298 001:491 JLINK_WriteReg(R4, 0x00000000)  returns 0x00 (0000ms, 1157ms total)
T4298 001:491 JLINK_WriteReg(R5, 0x00000000)  returns 0x00 (0000ms, 1157ms total)
T4298 001:491 JLINK_WriteReg(R6, 0x00000000)  returns 0x00 (0000ms, 1157ms total)
T4298 001:491 JLINK_WriteReg(R7, 0x00000000)  returns 0x00 (0000ms, 1157ms total)
T4298 001:491 JLINK_WriteReg(R8, 0x00000000)  returns 0x00 (0000ms, 1157ms total)
T4298 001:491 JLINK_WriteReg(R9, 0x20000530)  returns 0x00 (0000ms, 1157ms total)
T4298 001:491 JLINK_WriteReg(R10, 0x00000000)  returns 0x00 (0000ms, 1157ms total)
T4298 001:491 JLINK_WriteReg(R11, 0x00000000)  returns 0x00 (0000ms, 1157ms total)
T4298 001:491 JLINK_WriteReg(R12, 0x00000000)  returns 0x00 (0000ms, 1157ms total)
T4298 001:491 JLINK_WriteReg(R13 (SP), 0x20001000)  returns 0x00 (0000ms, 1157ms total)
T4298 001:491 JLINK_WriteReg(R14, 0x20000001)  returns 0x00 (0000ms, 1157ms total)
T4298 001:491 JLINK_WriteReg(R15 (PC), 0x20000072)  returns 0x00 (0000ms, 1157ms total)
T4298 001:491 JLINK_WriteReg(XPSR, 0x01000000)  returns 0x00 (0000ms, 1157ms total)
T4298 001:491 JLINK_WriteReg(MSP, 0x20001000)  returns 0x00 (0000ms, 1157ms total)
T4298 001:491 JLINK_WriteReg(PSP, 0x20001000)  returns 0x00 (0000ms, 1157ms total)
T4298 001:492 JLINK_WriteReg(CFBP, 0x00000000)  returns 0x00 (0000ms, 1158ms total)
T4298 001:492 JLINK_SetBPEx(Addr = 0x20000000, Type = 0xFFFFFFF2)  returns 0x0000000C (0000ms, 1158ms total)
T4298 001:492 JLINK_Go() -- CPU_ReadMem(4 bytes @ 0xE0001000) -- CPU_WriteMem(4 bytes @ 0xE0001000) (0003ms, 1161ms total)
T4298 001:495 JLINK_IsHalted() -- CPU_ReadMem(2 bytes @ 0x20000000)  returns TRUE (0006ms, 1167ms total)
T4298 001:501 JLINK_ReadReg(R15 (PC))  returns 0x20000000 (0000ms, 1161ms total)
T4298 001:501 JLINK_ClrBPEx(BPHandle = 0x0000000C)  returns 0x00 (0000ms, 1161ms total)
T4298 001:501 JLINK_ReadReg(R0)  returns 0x00000000 (0000ms, 1161ms total)
T4298 001:564 JLINK_WriteMem(0x20000000, 0x053C Bytes, ...) - Data: 00 BE 0A E0 0D 78 2D 06 68 40 08 24 40 00 00 D3 ... -- CPU_WriteMem(1340 bytes @ 0x20000000)  returns 0x53C (0015ms, 1176ms total)
T4298 001:579 JLINK_WriteReg(R0, 0x00000000)  returns 0x00 (0000ms, 1176ms total)
T4298 001:579 JLINK_WriteReg(R1, 0x00B71B00)  returns 0x00 (0000ms, 1176ms total)
T4298 001:579 JLINK_WriteReg(R2, 0x00000002)  returns 0x00 (0001ms, 1177ms total)
T4298 001:580 JLINK_WriteReg(R3, 0x00000000)  returns 0x00 (0000ms, 1177ms total)
T4298 001:580 JLINK_WriteReg(R4, 0x00000000)  returns 0x00 (0000ms, 1177ms total)
T4298 001:580 JLINK_WriteReg(R5, 0x00000000)  returns 0x00 (0000ms, 1177ms total)
T4298 001:580 JLINK_WriteReg(R6, 0x00000000)  returns 0x00 (0000ms, 1177ms total)
T4298 001:580 JLINK_WriteReg(R7, 0x00000000)  returns 0x00 (0000ms, 1177ms total)
T4298 001:580 JLINK_WriteReg(R8, 0x00000000)  returns 0x00 (0000ms, 1177ms total)
T4298 001:580 JLINK_WriteReg(R9, 0x20000530)  returns 0x00 (0000ms, 1177ms total)
T4298 001:580 JLINK_WriteReg(R10, 0x00000000)  returns 0x00 (0000ms, 1177ms total)
T4298 001:580 JLINK_WriteReg(R11, 0x00000000)  returns 0x00 (0000ms, 1177ms total)
T4298 001:580 JLINK_WriteReg(R12, 0x00000000)  returns 0x00 (0000ms, 1177ms total)
T4298 001:580 JLINK_WriteReg(R13 (SP), 0x20001000)  returns 0x00 (0000ms, 1177ms total)
T4298 001:580 JLINK_WriteReg(R14, 0x20000001)  returns 0x00 (0000ms, 1177ms total)
T4298 001:580 JLINK_WriteReg(R15 (PC), 0x20000020)  returns 0x00 (0000ms, 1177ms total)
T4298 001:580 JLINK_WriteReg(XPSR, 0x01000000)  returns 0x00 (0000ms, 1177ms total)
T4298 001:580 JLINK_WriteReg(MSP, 0x20001000)  returns 0x00 (0000ms, 1177ms total)
T4298 001:580 JLINK_WriteReg(PSP, 0x20001000)  returns 0x00 (0000ms, 1177ms total)
T4298 001:580 JLINK_WriteReg(CFBP, 0x00000000)  returns 0x00 (0001ms, 1178ms total)
T4298 001:581 JLINK_SetBPEx(Addr = 0x20000000, Type = 0xFFFFFFF2) -- CPU_ReadMem(2 bytes @ 0x20000000)  returns 0x0000000D (0000ms, 1178ms total)
T4298 001:581 JLINK_Go() -- CPU_WriteMem(2 bytes @ 0x20000000) -- CPU_ReadMem(4 bytes @ 0xE0001000) -- CPU_WriteMem(4 bytes @ 0xE0001000) (0004ms, 1182ms total)
T4298 001:585 JLINK_IsHalted() -- CPU_ReadMem(2 bytes @ 0x20000000)  returns TRUE (0005ms, 1187ms total)
T4298 001:590 JLINK_ReadReg(R15 (PC))  returns 0x20000000 (0000ms, 1182ms total)
T4298 001:591 JLINK_ClrBPEx(BPHandle = 0x0000000D)  returns 0x00 (0000ms, 1183ms total)
T4298 001:591 JLINK_ReadReg(R0)  returns 0x00000000 (0000ms, 1183ms total)
T4298 001:591 JLINK_WriteMem(0x20000560, 0x0200 Bytes, ...) - Data: C0 95 FF 1F 15 02 00 00 27 02 00 00 29 02 00 00 ... -- CPU_WriteMem(512 bytes @ 0x20000560)  returns 0x200 (0007ms, 1190ms total)
T4298 001:598 JLINK_WriteReg(R0, 0x00000000)  returns 0x00 (0000ms, 1190ms total)
T4298 001:598 JLINK_WriteReg(R1, 0x00000200)  returns 0x00 (0000ms, 1190ms total)
T4298 001:598 JLINK_WriteReg(R2, 0x20000560)  returns 0x00 (0000ms, 1190ms total)
T4298 001:598 JLINK_WriteReg(R3, 0x00000000)  returns 0x00 (0000ms, 1190ms total)
T4298 001:598 JLINK_WriteReg(R4, 0x00000000)  returns 0x00 (0000ms, 1190ms total)
T4298 001:598 JLINK_WriteReg(R5, 0x00000000)  returns 0x00 (0000ms, 1190ms total)
T4298 001:598 JLINK_WriteReg(R6, 0x00000000)  returns 0x00 (0000ms, 1190ms total)
T4298 001:598 JLINK_WriteReg(R7, 0x00000000)  returns 0x00 (0000ms, 1190ms total)
T4298 001:598 JLINK_WriteReg(R8, 0x00000000)  returns 0x00 (0000ms, 1190ms total)
T4298 001:598 JLINK_WriteReg(R9, 0x20000530)  returns 0x00 (0000ms, 1190ms total)
T4298 001:598 JLINK_WriteReg(R10, 0x00000000)  returns 0x00 (0000ms, 1190ms total)
T4298 001:598 JLINK_WriteReg(R11, 0x00000000)  returns 0x00 (0000ms, 1190ms total)
T4298 001:598 JLINK_WriteReg(R12, 0x00000000)  returns 0x00 (0000ms, 1190ms total)
T4298 001:598 JLINK_WriteReg(R13 (SP), 0x20001000)  returns 0x00 (0000ms, 1190ms total)
T4298 001:598 JLINK_WriteReg(R14, 0x20000001)  returns 0x00 (0000ms, 1190ms total)
T4298 001:598 JLINK_WriteReg(R15 (PC), 0x200000EA)  returns 0x00 (0000ms, 1190ms total)
T4298 001:598 JLINK_WriteReg(XPSR, 0x01000000)  returns 0x00 (0001ms, 1191ms total)
T4298 001:599 JLINK_WriteReg(MSP, 0x20001000)  returns 0x00 (0000ms, 1191ms total)
T4298 001:599 JLINK_WriteReg(PSP, 0x20001000)  returns 0x00 (0000ms, 1191ms total)
T4298 001:599 JLINK_WriteReg(CFBP, 0x00000000)  returns 0x00 (0000ms, 1191ms total)
T4298 001:599 JLINK_SetBPEx(Addr = 0x20000000, Type = 0xFFFFFFF2)  returns 0x0000000E (0000ms, 1191ms total)
T4298 001:599 JLINK_Go() -- CPU_ReadMem(4 bytes @ 0xE0001000) -- CPU_WriteMem(4 bytes @ 0xE0001000) (0003ms, 1194ms total)
T4298 001:602 JLINK_IsHalted()  returns FALSE (0001ms, 1195ms total)
T4298 001:614 JLINK_IsHalted() -- CPU_ReadMem(2 bytes @ 0x20000000)  returns TRUE (0005ms, 1199ms total)
T4298 001:619 JLINK_ReadReg(R15 (PC))  returns 0x20000000 (0000ms, 1194ms total)
T4298 001:619 JLINK_ClrBPEx(BPHandle = 0x0000000E)  returns 0x00 (0000ms, 1194ms total)
T4298 001:619 JLINK_ReadReg(R0)  returns 0x00000000 (0013ms, 1207ms total)
T4298 001:633 JLINK_WriteMem(0x20000560, 0x0200 Bytes, ...) - Data: 01 C5 36 1F 03 E0 21 78 29 70 64 1C 6D 1C 76 1E ... -- CPU_WriteMem(512 bytes @ 0x20000560)  returns 0x200 (0006ms, 1213ms total)
T4298 001:639 JLINK_WriteReg(R0, 0x00000200)  returns 0x00 (0000ms, 1213ms total)
T4298 001:639 JLINK_WriteReg(R1, 0x00000200)  returns 0x00 (0000ms, 1213ms total)
T4298 001:639 JLINK_WriteReg(R2, 0x20000560)  returns 0x00 (0000ms, 1213ms total)
T4298 001:639 JLINK_WriteReg(R3, 0x00000000)  returns 0x00 (0000ms, 1213ms total)
T4298 001:639 JLINK_WriteReg(R4, 0x00000000)  returns 0x00 (0000ms, 1213ms total)
T4298 001:639 JLINK_WriteReg(R5, 0x00000000)  returns 0x00 (0000ms, 1213ms total)
T4298 001:639 JLINK_WriteReg(R6, 0x00000000)  returns 0x00 (0000ms, 1213ms total)
T4298 001:640 JLINK_WriteReg(R7, 0x00000000)  returns 0x00 (0000ms, 1214ms total)
T4298 001:640 JLINK_WriteReg(R8, 0x00000000)  returns 0x00 (0000ms, 1214ms total)
T4298 001:640 JLINK_WriteReg(R9, 0x20000530)  returns 0x00 (0000ms, 1214ms total)
T4298 001:640 JLINK_WriteReg(R10, 0x00000000)  returns 0x00 (0000ms, 1214ms total)
T4298 001:640 JLINK_WriteReg(R11, 0x00000000)  returns 0x00 (0000ms, 1214ms total)
T4298 001:640 JLINK_WriteReg(R12, 0x00000000)  returns 0x00 (0000ms, 1214ms total)
T4298 001:640 JLINK_WriteReg(R13 (SP), 0x20001000)  returns 0x00 (0000ms, 1214ms total)
T4298 001:640 JLINK_WriteReg(R14, 0x20000001)  returns 0x00 (0000ms, 1214ms total)
T4298 001:640 JLINK_WriteReg(R15 (PC), 0x200000EA)  returns 0x00 (0000ms, 1214ms total)
T4298 001:640 JLINK_WriteReg(XPSR, 0x01000000)  returns 0x00 (0000ms, 1214ms total)
T4298 001:640 JLINK_WriteReg(MSP, 0x20001000)  returns 0x00 (0000ms, 1214ms total)
T4298 001:640 JLINK_WriteReg(PSP, 0x20001000)  returns 0x00 (0000ms, 1214ms total)
T4298 001:640 JLINK_WriteReg(CFBP, 0x00000000)  returns 0x00 (0000ms, 1214ms total)
T4298 001:640 JLINK_SetBPEx(Addr = 0x20000000, Type = 0xFFFFFFF2)  returns 0x0000000F (0000ms, 1214ms total)
T4298 001:640 JLINK_Go() -- CPU_ReadMem(4 bytes @ 0xE0001000) -- CPU_WriteMem(4 bytes @ 0xE0001000) (0004ms, 1218ms total)
T4298 001:644 JLINK_IsHalted()  returns FALSE (0001ms, 1219ms total)
T4298 001:647 JLINK_IsHalted()  returns FALSE (0000ms, 1218ms total)
T4298 001:649 JLINK_IsHalted()  returns FALSE (0000ms, 1218ms total)
T4298 001:651 JLINK_IsHalted()  returns FALSE (0000ms, 1218ms total)
T4298 001:671 JLINK_IsHalted() -- CPU_ReadMem(2 bytes @ 0x20000000)  returns TRUE (0005ms, 1223ms total)
T4298 001:676 JLINK_ReadReg(R15 (PC))  returns 0x20000000 (0000ms, 1218ms total)
T4298 001:676 JLINK_ClrBPEx(BPHandle = 0x0000000F)  returns 0x00 (0000ms, 1218ms total)
T4298 001:676 JLINK_ReadReg(R0)  returns 0x00000000 (0000ms, 1218ms total)
T4298 001:678 JLINK_WriteMem(0x20000560, 0x0200 Bytes, ...) - Data: FF FF FF FF FF FF FF FF FF FF FF FF FE FF FF FF ... -- CPU_WriteMem(512 bytes @ 0x20000560)  returns 0x200 (0006ms, 1224ms total)
T4298 001:684 JLINK_WriteReg(R0, 0x00000400)  returns 0x00 (0000ms, 1224ms total)
T4298 001:684 JLINK_WriteReg(R1, 0x00000200)  returns 0x00 (0000ms, 1224ms total)
T4298 001:684 JLINK_WriteReg(R2, 0x20000560)  returns 0x00 (0000ms, 1224ms total)
T4298 001:684 JLINK_WriteReg(R3, 0x00000000)  returns 0x00 (0000ms, 1224ms total)
T4298 001:684 JLINK_WriteReg(R4, 0x00000000)  returns 0x00 (0000ms, 1224ms total)
T4298 001:684 JLINK_WriteReg(R5, 0x00000000)  returns 0x00 (0000ms, 1224ms total)
T4298 001:684 JLINK_WriteReg(R6, 0x00000000)  returns 0x00 (0000ms, 1224ms total)
T4298 001:684 JLINK_WriteReg(R7, 0x00000000)  returns 0x00 (0000ms, 1224ms total)
T4298 001:684 JLINK_WriteReg(R8, 0x00000000)  returns 0x00 (0000ms, 1224ms total)
T4298 001:684 JLINK_WriteReg(R9, 0x20000530)  returns 0x00 (0001ms, 1225ms total)
T4298 001:685 JLINK_WriteReg(R10, 0x00000000)  returns 0x00 (0000ms, 1225ms total)
T4298 001:685 JLINK_WriteReg(R11, 0x00000000)  returns 0x00 (0000ms, 1225ms total)
T4298 001:685 JLINK_WriteReg(R12, 0x00000000)  returns 0x00 (0000ms, 1225ms total)
T4298 001:685 JLINK_WriteReg(R13 (SP), 0x20001000)  returns 0x00 (0000ms, 1225ms total)
T4298 001:685 JLINK_WriteReg(R14, 0x20000001)  returns 0x00 (0000ms, 1225ms total)
T4298 001:685 JLINK_WriteReg(R15 (PC), 0x200000EA)  returns 0x00 (0000ms, 1225ms total)
T4298 001:685 JLINK_WriteReg(XPSR, 0x01000000)  returns 0x00 (0000ms, 1225ms total)
T4298 001:685 JLINK_WriteReg(MSP, 0x20001000)  returns 0x00 (0000ms, 1225ms total)
T4298 001:685 JLINK_WriteReg(PSP, 0x20001000)  returns 0x00 (0000ms, 1225ms total)
T4298 001:685 JLINK_WriteReg(CFBP, 0x00000000)  returns 0x00 (0000ms, 1225ms total)
T4298 001:685 JLINK_SetBPEx(Addr = 0x20000000, Type = 0xFFFFFFF2)  returns 0x00000010 (0000ms, 1225ms total)
T4298 001:685 JLINK_Go() -- CPU_ReadMem(4 bytes @ 0xE0001000) -- CPU_WriteMem(4 bytes @ 0xE0001000) (0004ms, 1229ms total)
T4298 001:689 JLINK_IsHalted()  returns FALSE (0001ms, 1230ms total)
T4298 001:692 JLINK_IsHalted()  returns FALSE (0000ms, 1229ms total)
T4298 001:704 JLINK_IsHalted() -- CPU_ReadMem(2 bytes @ 0x20000000)  returns TRUE (0005ms, 1234ms total)
T4298 001:709 JLINK_ReadReg(R15 (PC))  returns 0x20000000 (0000ms, 1229ms total)
T4298 001:709 JLINK_ClrBPEx(BPHandle = 0x00000010)  returns 0x00 (0000ms, 1229ms total)
T4298 001:710 JLINK_ReadReg(R0)  returns 0x00000000 (0000ms, 1229ms total)
T4298 001:711 JLINK_WriteMem(0x20000560, 0x0200 Bytes, ...) - Data: 00 80 04 40 70 21 00 00 60 21 00 00 80 21 00 00 ... -- CPU_WriteMem(512 bytes @ 0x20000560)  returns 0x200 (0006ms, 1235ms total)
T4298 001:717 JLINK_WriteReg(R0, 0x00000600)  returns 0x00 (0000ms, 1235ms total)
T4298 001:717 JLINK_WriteReg(R1, 0x00000200)  returns 0x00 (0000ms, 1235ms total)
T4298 001:717 JLINK_WriteReg(R2, 0x20000560)  returns 0x00 (0000ms, 1235ms total)
T4298 001:717 JLINK_WriteReg(R3, 0x00000000)  returns 0x00 (0000ms, 1235ms total)
T4298 001:717 JLINK_WriteReg(R4, 0x00000000)  returns 0x00 (0000ms, 1235ms total)
T4298 001:717 JLINK_WriteReg(R5, 0x00000000)  returns 0x00 (0000ms, 1235ms total)
T4298 001:717 JLINK_WriteReg(R6, 0x00000000)  returns 0x00 (0000ms, 1235ms total)
T4298 001:717 JLINK_WriteReg(R7, 0x00000000)  returns 0x00 (0000ms, 1235ms total)
